UART>
READ: 0x07
UART>
READ: 0x01
UART>
READ: 0x12
UART>
READ: 0x01
UART>
READ: 0x1F
UART>
READ: 0x01
UART>
READ: 0x2D
UART>
READ: 0x01
UART>
READ: 0x37
UART>
READ: 0x01
UART>
READ: 0x43
UART>
READ: 0x01
UART>
READ: 0x4F
UART>
READ: 0x01
UART>
READ: 0x5A
UART>
READ: 0x01
UART>
READ: 0x66
UART>
READ: 0x01
UART>
READ: 0x72
UART>
READ: 0x01
UART>
READ: 0x7E
UART>
READ: 0x01
UART>
READ: 0x8A
UART>
READ: 0x01
UART>
READ: 0x95
UART>
READ: 0x01
UART>
READ: 0xA1
UART>
READ: 0x01
UART>
READ: 0xAD
UART>
READ: 0x01
UART>
READ: 0xB8
UART>
READ: 0x01
UART>
READ: 0xC5
UART>
READ: 0x01
UART>
READ: 0xD0
UART>
READ: 0x01
UART>
READ: 0xDC
UART>
READ: 0x01
UART>
READ: 0xE7
UART>
READ: 0x01
UART>
READ: 0xF2
UART>
READ: 0x01
UART>
READ: 0xFE
UART>
READ: 0x01
UART>
READ: 0x09
UART>
READ: 0x02
UART>
READ: 0x15
UART>
READ: 0x02
UART>
READ: 0x20
UART>
READ: 0x02
UART>
READ: 0x2B
UART>
READ: 0x02
UART>
READ: 0x35
UART>
READ: 0x02
UART>
READ: 0x41
UART>
READ: 0x02
UART>
READ: 0x4C
UART>
READ: 0x02
UART>
READ: 0x57
UART>
READ: 0x02
UART>
READ: 0x62
UART>
READ: 0x02
UART>
READ: 0x6D
UART>
READ: 0x02
UART>
READ: 0x78
UART>
READ: 0x02
UART>
READ: 0x83
UART>
READ: 0x02
UART>
READ: 0x8E
UART>
READ: 0x02
UART>
READ: 0x99
UART>
READ: 0x02
UART>
READ: 0xA4
UART>
READ: 0x02
UART>
READ: 0xAF
UART>
READ: 0x02
UART>
READ: 0xBA
UART>
READ: 0x02
UART>
READ: 0xC6
UART>
READ: 0x02
UART>
READ: 0xD0
UART>
READ: 0x02
UART>
READ: 0xDA
UART>
READ: 0x02
UART>
READ: 0xE5
UART>
READ: 0x02
UART>
READ: 0xEF
UART>
READ: 0x02
UART>
READ: 0xFA
UART>
READ: 0x02
UART>
READ: 0x04
UART>
READ: 0x03
UART>
READ: 0x0F
UART>
READ: 0x03
UART>
READ: 0x18
UART>
READ: 0x03
UART>
READ: 0x24
UART>
READ: 0x03
UART>
READ: 0x30
UART>
READ: 0x03
UART>
READ: 0x3A
UART>
READ: 0x03
UART>
READ: 0x44
UART>
READ: 0x03
UART>
READ: 0x4E
UART>
READ: 0x03
UART>
READ: 0x59
UART>
READ: 0x03
UART>
READ: 0x63
UART>
READ: 0x03
UART>
READ: 0x6D
UART>
READ: 0x03
UART>
READ: 0x77
UART>
READ: 0x03
UART>
READ: 0x81
UART>
READ: 0x03
UART>
READ: 0x8B
UART>
READ: 0x03
UART>
READ: 0x94
UART>
READ: 0x03
UART>
READ: 0x9D
UART>
READ: 0x03
UART>
READ: 0xA7
UART>
READ: 0x03
UART>
READ: 0xB1
UART>
READ: 0x03
UART>
READ: 0xBA
UART>
READ: 0x03
UART>
READ: 0xC3
UART>
READ: 0x03
UART>
READ: 0xCD
UART>
READ: 0x03
UART>
READ: 0xD6
UART>
READ: 0x03
UART>
READ: 0xDF
UART>
READ: 0x03
UART>
READ: 0xE9
UART>
READ: 0x03
UART>
READ: 0xF2
UART>
READ: 0x03
UART>
READ: 0xFB
UART>
READ: 0x03
UART>
READ: 0x04
UART>
READ: 0x04
UART>
READ: 0x0D
UART>
READ: 0x04
UART>
READ: 0x16
UART>
READ: 0x04
UART>
READ: 0x1F
UART>
READ: 0x04
UART>
READ: 0x27
UART>
READ: 0x04
UART>
READ: 0x30
UART>
READ: 0x04
UART>
READ: 0x38
UART>
READ: 0x04
UART>
READ: 0x41
UART>
READ: 0x04
UART>
READ: 0x49
UART>
READ: 0x04
UART>
READ: 0x51
UART>
READ: 0x04
UART>
READ: 0x59
UART>
READ: 0x04
UART>
READ: 0x62
UART>
READ: 0x04
UART>
READ: 0x69
UART>
READ: 0x04
UART>
READ: 0x71
UART>
READ: 0x04
UART>
READ: 0x79
UART>
READ: 0x04
UART>
READ: 0x80
UART>
READ: 0x04
UART>
READ: 0x88
UART>
READ: 0x04
UART>
READ: 0x8F
UART>
READ: 0x04
UART>
READ: 0x96
UART>
READ: 0x04
UART>
READ: 0x9D
UART>
READ: 0x04
UART>
READ: 0xA5
UART>
READ: 0x04
UART>
READ: 0xAC
UART>
READ: 0x04
UART>
READ: 0xB3
UART>
READ: 0x04
UART>
READ: 0xB9
UART>
READ: 0x04
UART>
READ: 0xC1
UART>
READ: 0x04
UART>
READ: 0xC7
UART>
READ: 0x04
UART>
READ: 0xCE
UART>
READ: 0x04
UART>
READ: 0xD4
UART>
READ: 0x04
UART>
READ: 0xDA
UART>
READ: 0x04
UART>
READ: 0xDB
UART>
READ: 0x04
UART>
READ: 0xD8
UART>
READ: 0x04
UART>
READ: 0xD3
UART>
READ: 0x04
UART>
READ: 0xCE
UART>
READ: 0x04
UART>
READ: 0xCA
UART>
READ: 0x04
UART>
READ: 0xCA
UART>
READ: 0x04
UART>
READ: 0xCF
UART>
READ: 0x04
UART>
READ: 0xD5
UART>
READ: 0x04
UART>
READ: 0xDC
UART>
READ: 0x04
UART>
READ: 0xDD
UART>
READ: 0x04
UART>
READ: 0xDA
UART>
READ: 0x04
UART>
READ: 0xD7
UART>
READ: 0x04
UART>
READ: 0xD4
UART>
READ: 0x04
UART>
READ: 0xD0
UART>
READ: 0x04
UART>
READ: 0xCE
UART>
READ: 0x04
UART>
READ: 0xCF
UART>
READ: 0x04
UART>
READ: 0xD4
UART>
READ: 0x04
UART>
READ: 0xDA
UART>
READ: 0x04
UART>
READ: 0xDD
UART>
READ: 0x04
UART>
READ: 0xDC
UART>
READ: 0x04
UART>
READ: 0xDA
UART>
READ: 0x04
UART>
READ: 0xD8
UART>
READ: 0x04
UART>
READ: 0xD8
UART>
READ: 0x04
UART>
READ: 0xD7
UART>
READ: 0x04
UART>
READ: 0xD6
UART>
READ: 0x04
UART>
READ: 0xD5
UART>
READ: 0x04
UART>
READ: 0xD6
UART>
READ: 0x04
UART>
READ: 0xD6
UART>
READ: 0x04
UART>
READ: 0xD6
UART>
READ: 0x04
UART>
READ: 0xD7
UART>
READ: 0x04
UART>
READ: 0xD9
UART>
READ: 0x04
UART>
READ: 0xDA
UART>
READ: 0x04
UART>
READ: 0xDC
UART>
READ: 0x04
UART>
READ: 0xDF
UART>
READ: 0x04
UART>
READ: 0xE1
UART>
READ: 0x04
UART>
READ: 0xE3
UART>
READ: 0x04
UART>
READ: 0xE6
UART>
READ: 0x04
UART>
READ: 0xE9
UART>
READ: 0x04
UART>
READ: 0xED
UART>
READ: 0x04
UART>
READ: 0xF0
UART>
READ: 0x04
UART>
READ: 0xF3
UART>
READ: 0x04
UART>
READ: 0xF7
UART>
READ: 0x04
UART>
READ: 0xFB
UART>
READ: 0x04
UART>
READ: 0xFE
UART>
READ: 0x04
UART>
READ: 0x02
UART>
READ: 0x05
UART>
READ: 0x05
UART>
READ: 0x05
UART>
READ: 0x09
UART>
READ: 0x05
UART>
READ: 0x0D
UART>
READ: 0x05
UART>
READ: 0x10
UART>
READ: 0x05
UART>
READ: 0x13
UART>
READ: 0x05
UART>
READ: 0x16
UART>
READ: 0x05
UART>
READ: 0x18
UART>
READ: 0x05
UART>
READ: 0x1B
UART>
READ: 0x05
UART>
READ: 0x1D
UART>
READ: 0x05
UART>
READ: 0x20
UART>
READ: 0x05
UART>
READ: 0x22
UART>
READ: 0x05
UART>
READ: 0x23
UART>
READ: 0x05
UART>
READ: 0x24
UART>
READ: 0x05
UART>
READ: 0x25
UART>
READ: 0x05
UART>
READ: 0x26
UART>
READ: 0x05
UART>
READ: 0x26
UART>
READ: 0x05
UART>
READ: 0x26
UART>
READ: 0x05
UART>
READ: 0x25
UART>
READ: 0x05
UART>
READ: 0x24
UART>
READ: 0x05
UART>
READ: 0x24
UART>
READ: 0x05
UART>
READ: 0x23
UART>
READ: 0x05
UART>
READ: 0x21
UART>
READ: 0x05
UART>
READ: 0x1F
UART>
READ: 0x05
UART>
READ: 0x1D
UART>
READ: 0x05
UART>
READ: 0x1B
UART>
READ: 0x05
UART>
READ: 0x19
UART>
READ: 0x05
UART>
READ: 0x16
UART>
READ: 0x05
UART>
READ: 0x13
UART>
READ: 0x05
UART>
READ: 0x11
UART>
READ: 0x05
UART>
READ: 0x0D
UART>
READ: 0x05
UART>
READ: 0x0A
UART>
READ: 0x05
UART>
READ: 0x07
UART>
READ: 0x05
UART>
READ: 0x03
UART>
READ: 0x05
UART>
READ: 0x00
UART>
READ: 0x05
UART>
READ: 0xFD
UART>
READ: 0x04
UART>
READ: 0xFA
UART>
READ: 0x04
UART>
READ: 0xF7
UART>
READ: 0x04
UART>
READ: 0xF4
UART>
READ: 0x04
UART>
READ: 0xF1
UART>
READ: 0x04
UART>
READ: 0xEE
UART>
READ: 0x04
UART>
READ: 0xEC
UART>
READ: 0x04
UART>
READ: 0xEA
UART>
READ: 0x04
UART>
READ: 0xE8
UART>
READ: 0x04
UART>
READ: 0xE7
UART>
READ: 0x04
UART>
READ: 0xE5
UART>
READ: 0x04
UART>
READ: 0xE3
UART>
READ: 0x04
UART>
READ: 0xE2
UART>
READ: 0x04
UART>
READ: 0xE1
UART>
READ: 0x04
UART>
READ: 0xE0
UART>
READ: 0x04
UART>
READ: 0xE0
UART>
READ: 0x04
UART>
READ: 0xE0
UART>
READ: 0x04
UART>
READ: 0xE0
UART>
READ: 0x04
UART>
READ: 0xDF
UART>
READ: 0x04
UART>
READ: 0xE0
UART>
READ: 0x04
UART>
READ: 0xE1
UART>
READ: 0x04
UART>
READ: 0xE2
UART>
READ: 0x04
UART>
READ: 0xE3
UART>
READ: 0x04
UART>
READ: 0xE5
UART>
READ: 0x04
UART>
READ: 0xE7
UART>
READ: 0x04
UART>
READ: 0xE9
UART>
READ: 0x04
UART>
READ: 0xEA
UART>
READ: 0x04
UART>
READ: 0xEC
UART>
READ: 0x04
UART>
READ: 0xEE
UART>
READ: 0x04
UART>
READ: 0xF1
UART>
READ: 0x04
UART>
READ: 0xF2
UART>
READ: 0x04
UART>
READ: 0xF4
UART>
READ: 0x04
UART>
READ: 0xF6
UART>
READ: 0x04
UART>
READ: 0xF8
UART>
READ: 0x04
UART>
READ: 0xFA
UART>
READ: 0x04
UART>
READ: 0xFC
UART>
READ: 0x04
UART>
READ: 0xFE
UART>
READ: 0x04
UART>
READ: 0x00
UART>
READ: 0x05
UART>
READ: 0x02
UART>
READ: 0x05
UART>
READ: 0x04
UART>
READ: 0x05
UART>
READ: 0x06
UART>
READ: 0x05
UART>
READ: 0x07
UART>
READ: 0x05
UART>
READ: 0x09
UART>
READ: 0x05
UART>
READ: 0x0A
UART>
READ: 0x05
UART>
READ: 0x0C
UART>
READ: 0x05
UART>
READ: 0x0D
UART>
READ: 0x05
UART>
READ: 0x0F
UART>
READ: 0x05
UART>
READ: 0x10
UART>
READ: 0x05
UART>
READ: 0x11
UART>
READ: 0x05
UART>
READ: 0x13
UART>
READ: 0x05
UART>
READ: 0x14
UART>
READ: 0x05
UART>
READ: 0x15
UART>
READ: 0x05
UART>
READ: 0x16
UART>
READ: 0x05
UART>
READ: 0x18
UART>
READ: 0x05
UART>
READ: 0x19
UART>
READ: 0x05
UART>
READ: 0x1A
UART>
READ: 0x05
UART>
READ: 0x1B
UART>
READ: 0x05
UART>
READ: 0x1D
UART>
READ: 0x05
UART>
READ: 0x1F
UART>
READ: 0x05
UART>
READ: 0x20
UART>
READ: 0x05
UART>
READ: 0x20
UART>
READ: 0x05
UART>
READ: 0x22
UART>
READ: 0x05
UART>
READ: 0x23
UART>
READ: 0x05
UART>
READ: 0x24
UART>
READ: 0x05
UART>
READ: 0x25
UART>
READ: 0x05
UART>
READ: 0x26
UART>
READ: 0x05
UART>
READ: 0x26
UART>
READ: 0x05
UART>
READ: 0x27
UART>
READ: 0x05
UART>
READ: 0x27
UART>
READ: 0x05
UART>
READ: 0x28
UART>
READ: 0x05
UART>
READ: 0x28
UART>
READ: 0x05
UART>
READ: 0x29
UART>
READ: 0x05
UART>
READ: 0x29
UART>
READ: 0x05
UART>
READ: 0x2A
UART>
READ: 0x05
UART>
READ: 0x2A
UART>
READ: 0x05
UART>
READ: 0x2A
UART>
READ: 0x05
UART>
READ: 0x2B
UART>
READ: 0x05
UART>
READ: 0x2B
UART>
READ: 0x05
UART>
READ: 0x2C
UART>
READ: 0x05
UART>
READ: 0x2C
UART>
READ: 0x05
UART>
READ: 0x2C
UART>
READ: 0x05
UART>
READ: 0x2D
UART>
READ: 0x05
UART>
READ: 0x2E
UART>
READ: 0x05
UART>
READ: 0x2E
UART>
READ: 0x05
UART>
READ: 0x2E
UART>
READ: 0x05
UART>
READ: 0x2E
UART>
READ: 0x05
UART>
READ: 0x2F
UART>
READ: 0x05
UART>
READ: 0x2F
UART>
READ: 0x05
UART>
READ: 0x30
UART>
READ: 0x05
UART>
READ: 0x31
UART>
READ: 0x05
UART>
READ: 0x31
UART>
READ: 0x05
UART>
READ: 0x31
UART>
READ: 0x05
UART>
READ: 0x30
UART>
READ: 0x05
UART>
READ: 0x2F
UART>
READ: 0x05
UART>
READ: 0x2F
UART>
READ: 0x05
UART>
READ: 0x2E
UART>
READ: 0x05
UART>
READ: 0x2F
UART>
READ: 0x05
UART>
READ: 0x2F
UART>
READ: 0x05
UART>
READ: 0x30
UART>
READ: 0x05
UART>
READ: 0x30
UART>
READ: 0x05
UART>
READ: 0x2F
UART>
READ: 0x05
UART>
READ: 0x2F
UART>
READ: 0x05
UART>
READ: 0x2F
UART>
READ: 0x05
UART>
READ: 0x2F
UART>
READ: 0x05
UART>
READ: 0x2F
UART>
READ: 0x05
UART>
READ: 0x2F
UART>
READ: 0x05
UART>
READ: 0x30
UART>
READ: 0x05
UART>
READ: 0x30
UART>
READ: 0x05
UART>
READ: 0x30
UART>
READ: 0x05
UART>
READ: 0x2F
UART>
READ: 0x05
UART>
READ: 0x2E
UART>
READ: 0x05
UART>
READ: 0x2F
UART>
READ: 0x05
UART>
READ: 0x2F
UART>
READ: 0x05
UART>
READ: 0x30
UART>
READ: 0x05
UART>
READ: 0x2F
UART>
READ: 0x05
UART>
READ: 0x2F
UART>
READ: 0x05
UART>
READ: 0x2F
UART>
READ: 0x05
UART>
READ: 0x30
UART>
READ: 0x05
UART>
READ: 0x31
UART>
READ: 0x05
UART>
READ: 0x31
UART>
READ: 0x05
UART>
READ: 0x30
UART>
READ: 0x05
UART>
READ: 0x2F
UART>
READ: 0x05
UART>
READ: 0x2F
UART>
READ: 0x05
UART>
READ: 0x2E
UART>
READ: 0x05
UART>
READ: 0x2E
UART>
READ: 0x05
UART>
READ: 0x2E
UART>
READ: 0x05
UART>
READ: 0x2F
UART>
READ: 0x05
UART>
READ: 0x2F
UART>
READ: 0x05
UART>
READ: 0x30
UART>
READ: 0x05
UART>
READ: 0x30
UART>
READ: 0x05
UART>
READ: 0x30
UART>
READ: 0x05
UART>
READ: 0x2F
UART>
READ: 0x05
UART>
READ: 0x2F
UART>
READ: 0x05
UART>
READ: 0x2F
UART>
READ: 0x05
UART>
READ: 0x30
UART>
READ: 0x05
UART>
READ: 0x30
UART>
READ: 0x05
UART>
READ: 0x30
UART>
READ: 0x05
UART>
READ: 0x2F
UART>
READ: 0x05
UART>
READ: 0x2F
UART>
READ: 0x05
UART>
READ: 0x2F
UART>
READ: 0x05
UART>
READ: 0x2F
UART>
READ: 0x05
UART>
READ: 0x2F
UART>
READ: 0x05
UART>
READ: 0x30
UART>
READ: 0x05
UART>
READ: 0x2F
UART>
READ: 0x05
UART>
READ: 0x2F
UART>
READ: 0x05
UART>
READ: 0x2F
UART>
READ: 0x05
UART>
READ: 0x2F
UART>
READ: 0x05
UART>
READ: 0x2F
UART>
READ: 0x05
UART>
READ: 0x2F
UART>
READ: 0x05
UART>
READ: 0x2E
UART>
READ: 0x05
UART>
READ: 0x2E
UART>
READ: 0x05
UART>
READ: 0x2E
UART>
READ: 0x05
UART>
READ: 0x2E
UART>
READ: 0x05
UART>
READ: 0x2E
UART>
READ: 0x05
UART>
READ: 0x2E
UART>
READ: 0x05
UART>
READ: 0x2D
UART>
READ: 0x05
UART>
READ: 0x2E
UART>
READ: 0x05
UART>
READ: 0x2E
UART>
READ: 0x05
UART>
READ: 0x2E
UART>
READ: 0x05
UART>
READ: 0x2E
UART>
READ: 0x05
UART>