READ: 0x3E
UART>
READ: 0x03
UART>
READ: 0x3F
UART>
READ: 0x03
UART>
READ: 0x46
UART>
READ: 0x03
UART>
READ: 0x51
UART>
READ: 0x03
UART>
READ: 0x5C
UART>
READ: 0x03
UART>
READ: 0x67
UART>
READ: 0x03
UART>
READ: 0x72
UART>
READ: 0x03
UART>
READ: 0x7C
UART>
READ: 0x03
UART>
READ: 0x88
UART>
READ: 0x03
UART>
READ: 0x93
UART>
READ: 0x03
UART>
READ: 0x9D
UART>
READ: 0x03
UART>
READ: 0xA8
UART>
READ: 0x03
UART>
READ: 0xB3
UART>
READ: 0x03
UART>
READ: 0xBD
UART>
READ: 0x03
UART>
READ: 0xC8
UART>
READ: 0x03
UART>
READ: 0xD1
UART>
READ: 0x03
UART>
READ: 0xDC
UART>
READ: 0x03
UART>
READ: 0xE6
UART>
READ: 0x03
UART>
READ: 0xF0
UART>
READ: 0x03
UART>
READ: 0xFA
UART>
READ: 0x03
UART>
READ: 0x04
UART>
READ: 0x04
UART>
READ: 0x0E
UART>
READ: 0x04
UART>
READ: 0x17
UART>
READ: 0x04
UART>
READ: 0x20
UART>
READ: 0x04
UART>
READ: 0x2A
UART>
READ: 0x04
UART>
READ: 0x33
UART>
READ: 0x04
UART>
READ: 0x3C
UART>
READ: 0x04
UART>
READ: 0x46
UART>
READ: 0x04
UART>
READ: 0x4E
UART>
READ: 0x04
UART>
READ: 0x57
UART>
READ: 0x04
UART>
READ: 0x60
UART>
READ: 0x04
UART>
READ: 0x69
UART>
READ: 0x04
UART>
READ: 0x71
UART>
READ: 0x04
UART>
READ: 0x7A
UART>
READ: 0x04
UART>
READ: 0x82
UART>
READ: 0x04
UART>
READ: 0x8A
UART>
READ: 0x04
UART>
READ: 0x93
UART>
READ: 0x04
UART>
READ: 0x9B
UART>
READ: 0x04
UART>
READ: 0xA2
UART>
READ: 0x04
UART>
READ: 0xAA
UART>
READ: 0x04
UART>
READ: 0xB1
UART>
READ: 0x04
UART>
READ: 0xB9
UART>
READ: 0x04
UART>
READ: 0xC0
UART>
READ: 0x04
UART>
READ: 0xC7
UART>
READ: 0x04
UART>
READ: 0xCF
UART>
READ: 0x04
UART>
READ: 0xD4
UART>
READ: 0x04
UART>
READ: 0xD8
UART>
READ: 0x04
UART>
READ: 0xDB
UART>
READ: 0x04
UART>
READ: 0xDD
UART>
READ: 0x04
UART>
READ: 0xDE
UART>
READ: 0x04
UART>
READ: 0xDE
UART>
READ: 0x04
UART>
READ: 0xDF
UART>
READ: 0x04
UART>
READ: 0xDF
UART>
READ: 0x04
UART>
READ: 0xDF
UART>
READ: 0x04
UART>
READ: 0xDF
UART>
READ: 0x04
UART>
READ: 0xDF
UART>
READ: 0x04
UART>
READ: 0xDF
UART>
READ: 0x04
UART>
READ: 0xDF
UART>
READ: 0x04
UART>
READ: 0xDF
UART>
READ: 0x04
UART>
READ: 0xDF
UART>
READ: 0x04
UART>
READ: 0xDF
UART>
READ: 0x04
UART>
READ: 0xDF
UART>
READ: 0x04
UART>
READ: 0xDF
UART>
READ: 0x04
UART>
READ: 0xDF
UART>
READ: 0x04
UART>
READ: 0xDF
UART>
READ: 0x04
UART>
READ: 0xDE
UART>
READ: 0x04
UART>
READ: 0xDE
UART>
READ: 0x04
UART>
READ: 0xDF
UART>
READ: 0x04
UART>
READ: 0xDF
UART>
READ: 0x04
UART>
READ: 0xDF
UART>
READ: 0x04
UART>
READ: 0xDE
UART>
READ: 0x04
UART>
READ: 0xDF
UART>
READ: 0x04
UART>
READ: 0xDE
UART>
READ: 0x04
UART>
READ: 0xDF
UART>
READ: 0x04
UART>
READ: 0xDF
UART>
READ: 0x04
UART>
READ: 0xDF
UART>
READ: 0x04
UART>
READ: 0xDF
UART>
READ: 0x04
UART>
READ: 0xDE
UART>
READ: 0x04
UART>
READ: 0xDE
UART>
READ: 0x04
UART>
READ: 0xDE
UART>
READ: 0x04
UART>
READ: 0xDE
UART>
READ: 0x04
UART>
READ: 0xDF
UART>
READ: 0x04
UART>
READ: 0xDF
UART>
READ: 0x04
UART>
READ: 0xDF
UART>
READ: 0x04
UART>
READ: 0xDF
UART>
READ: 0x04
UART>
READ: 0xDF
UART>
READ: 0x04
UART>
READ: 0xDF
UART>
READ: 0x04
UART>
READ: 0xDF
UART>
READ: 0x04
UART>
READ: 0xDF
UART>
READ: 0x04
UART>
READ: 0xDF
UART>
READ: 0x04
UART>
READ: 0xDF
UART>
READ: 0x04
UART>
READ: 0xDF
UART>
READ: 0x04
UART>
READ: 0xDF
UART>
READ: 0x04
UART>
READ: 0xDF
UART>
READ: 0x04
UART>
READ: 0xE0
UART>
READ: 0x04
UART>
READ: 0xDF
UART>
READ: 0x04
UART>
READ: 0xE0
UART>
READ: 0x04
UART>
READ: 0xE0
UART>
READ: 0x04
UART>
READ: 0xE0
UART>
READ: 0x04
UART>
READ: 0xE0
UART>
READ: 0x04
UART>
READ: 0xE0
UART>
READ: 0x04
UART>
READ: 0xDF
UART>
READ: 0x04
UART>
READ: 0xDF
UART>
READ: 0x04
UART>
READ: 0xDF
UART>
READ: 0x04
UART>
READ: 0xDF
UART>
READ: 0x04
UART>
READ: 0xDF
UART>
READ: 0x04
UART>
READ: 0xDF
UART>
READ: 0x04
UART>
READ: 0xDE
UART>
READ: 0x04
UART>
READ: 0xDF
UART>
READ: 0x04
UART>
READ: 0xDE
UART>
READ: 0x04
UART>
READ: 0xDE
UART>
READ: 0x04
UART>
READ: 0xDE
UART>
READ: 0x04
UART>
READ: 0xDF
UART>
READ: 0x04
UART>
READ: 0xDF
UART>
READ: 0x04
UART>
READ: 0xDF
UART>
READ: 0x04
UART>
READ: 0xDF
UART>
READ: 0x04
UART>
READ: 0xDF
UART>
READ: 0x04
UART>
READ: 0xDF
UART>
READ: 0x04
UART>
READ: 0xDF
UART>
READ: 0x04
UART>
READ: 0xDF
UART>
READ: 0x04
UART>
READ: 0xDF
UART>
READ: 0x04
UART>
READ: 0xDF
UART>
READ: 0x04
UART>
READ: 0xDF
UART>
READ: 0x04
UART>
READ: 0xDF
UART>
READ: 0x04
UART>
READ: 0xDF
UART>
READ: 0x04
UART>
READ: 0xDE
UART>
READ: 0x04
UART>
READ: 0xDE
UART>
READ: 0x04
UART>
READ: 0xDF
UART>
READ: 0x04
UART>
READ: 0xDE
UART>
READ: 0x04
UART>
READ: 0xDF
UART>
READ: 0x04
UART>
READ: 0xE0
UART>
READ: 0x04
UART>
READ: 0xDF
UART>
READ: 0x04
UART>
READ: 0xDF
UART>
READ: 0x04
UART>
READ: 0xDF
UART>
READ: 0x04
UART>
READ: 0xDF
UART>
READ: 0x04
UART>
READ: 0xDF
UART>
READ: 0x04
UART>
READ: 0xDF
UART>
READ: 0x04
UART>
READ: 0xDF
UART>
READ: 0x04
UART>
READ: 0xDF
UART>
READ: 0x04
UART>
READ: 0xDF
UART>
READ: 0x04
UART>
READ: 0xDF
UART>
READ: 0x04
UART>
READ: 0xDF
UART>
READ: 0x04
UART>
READ: 0xDF
UART>
READ: 0x04
UART>
READ: 0xE0
UART>
READ: 0x04
UART>
READ: 0xDF
UART>
READ: 0x04
UART>
READ: 0xDF
UART>
READ: 0x04
UART>
READ: 0xDF
UART>
READ: 0x04
UART>
READ: 0xDF
UART>
READ: 0x04
UART>
READ: 0xDF
UART>
READ: 0x04
UART>
READ: 0xDF
UART>
READ: 0x04
UART>
READ: 0xDF
UART>
READ: 0x04
UART>
READ: 0xDF
UART>
READ: 0x04
UART>
READ: 0xDF
UART>
READ: 0x04
UART>
READ: 0xDF
UART>
READ: 0x04
UART>
READ: 0xDF
UART>
READ: 0x04