READ: 0xF2
UART>
READ: 0x00
UART>
READ: 0xF4
UART>
READ: 0x00
UART>
READ: 0xFC
UART>
READ: 0x00
UART>
READ: 0x07
UART>
READ: 0x01
UART>
READ: 0x16
UART>
READ: 0x01
UART>
READ: 0x21
UART>
READ: 0x01
UART>
READ: 0x2A
UART>
READ: 0x01
UART>
READ: 0x37
UART>
READ: 0x01
UART>
READ: 0x42
UART>
READ: 0x01
UART>
READ: 0x4E
UART>
READ: 0x01
UART>
READ: 0x5A
UART>
READ: 0x01
UART>
READ: 0x66
UART>
READ: 0x01
UART>
READ: 0x71
UART>
READ: 0x01
UART>
READ: 0x7D
UART>
READ: 0x01
UART>
READ: 0x89
UART>
READ: 0x01
UART>
READ: 0x94
UART>
READ: 0x01
UART>
READ: 0x93
UART>
READ: 0x01
UART>
READ: 0x98
UART>
READ: 0x01
UART>
READ: 0xA2
UART>
READ: 0x01
UART>
READ: 0xAC
UART>
READ: 0x01
UART>
READ: 0xB6
UART>
READ: 0x01
UART>
READ: 0xC1
UART>
READ: 0x01
UART>
READ: 0xCB
UART>
READ: 0x01
UART>
READ: 0xD5
UART>
READ: 0x01
UART>
READ: 0xDF
UART>
READ: 0x01
UART>
READ: 0xEA
UART>
READ: 0x01
UART>
READ: 0xF4
UART>
READ: 0x01
UART>
READ: 0xFE
UART>
READ: 0x01
UART>
READ: 0x08
UART>
READ: 0x02
UART>
READ: 0x13
UART>
READ: 0x02
UART>
READ: 0x1D
UART>
READ: 0x02
UART>
READ: 0x27
UART>
READ: 0x02
UART>
READ: 0x31
UART>
READ: 0x02
UART>
READ: 0x3B
UART>
READ: 0x02
UART>
READ: 0x44
UART>
READ: 0x02
UART>
READ: 0x4E
UART>
READ: 0x02
UART>
READ: 0x58
UART>
READ: 0x02
UART>
READ: 0x62
UART>
READ: 0x02
UART>
READ: 0x6B
UART>
READ: 0x02
UART>
READ: 0x75
UART>
READ: 0x02
UART>
READ: 0x7F
UART>
READ: 0x02
UART>
READ: 0x88
UART>
READ: 0x02
UART>
READ: 0x92
UART>
READ: 0x02
UART>
READ: 0x9C
UART>
READ: 0x02
UART>
READ: 0xA6
UART>
READ: 0x02
UART>
READ: 0xAF
UART>
READ: 0x02
UART>
READ: 0xB9
UART>
READ: 0x02
UART>
READ: 0xC3
UART>
READ: 0x02
UART>
READ: 0xCD
UART>
READ: 0x02
UART>
READ: 0xD7
UART>
READ: 0x02
UART>
READ: 0xE0
UART>
READ: 0x02
UART>
READ: 0xE9
UART>
READ: 0x02
UART>
READ: 0xF3
UART>
READ: 0x02
UART>
READ: 0xFC
UART>
READ: 0x02
UART>
READ: 0x03
UART>
READ: 0x03
UART>
READ: 0x0E
UART>
READ: 0x03
UART>
READ: 0x19
UART>
READ: 0x03
UART>
READ: 0x22
UART>
READ: 0x03
UART>
READ: 0x2D
UART>
READ: 0x03
UART>
READ: 0x36
UART>
READ: 0x03
UART>
READ: 0x3E
UART>
READ: 0x03
UART>
READ: 0x47
UART>
READ: 0x03
UART>
READ: 0x50
UART>
READ: 0x03
UART>
READ: 0x59
UART>
READ: 0x03
UART>
READ: 0x62
UART>
READ: 0x03
UART>
READ: 0x6B
UART>
READ: 0x03
UART>
READ: 0x74
UART>
READ: 0x03
UART>
READ: 0x7C
UART>
READ: 0x03
UART>
READ: 0x85
UART>
READ: 0x03
UART>
READ: 0x8E
UART>
READ: 0x03
UART>
READ: 0x97
UART>
READ: 0x03
UART>
READ: 0x9F
UART>
READ: 0x03
UART>
READ: 0xA8
UART>
READ: 0x03
UART>
READ: 0xB1
UART>
READ: 0x03
UART>
READ: 0xB9
UART>
READ: 0x03
UART>
READ: 0xC1
UART>
READ: 0x03
UART>
READ: 0xCA
UART>
READ: 0x03
UART>
READ: 0xD3
UART>
READ: 0x03
UART>
READ: 0xDB
UART>
READ: 0x03
UART>
READ: 0xE4
UART>
READ: 0x03
UART>
READ: 0xEC
UART>
READ: 0x03
UART>
READ: 0xF4
UART>
READ: 0x03
UART>
READ: 0xFC
UART>
READ: 0x03
UART>
READ: 0x04
UART>
READ: 0x04
UART>
READ: 0x0C
UART>
READ: 0x04
UART>
READ: 0x13
UART>
READ: 0x04
UART>
READ: 0x1B
UART>
READ: 0x04
UART>
READ: 0x23
UART>
READ: 0x04
UART>
READ: 0x2C
UART>
READ: 0x04
UART>
READ: 0x34
UART>
READ: 0x04
UART>
READ: 0x3B
UART>
READ: 0x04
UART>
READ: 0x42
UART>
READ: 0x04
UART>
READ: 0x49
UART>
READ: 0x04
UART>
READ: 0x51
UART>
READ: 0x04
UART>
READ: 0x57
UART>
READ: 0x04
UART>
READ: 0x5B
UART>
READ: 0x04
UART>
READ: 0x5C
UART>
READ: 0x04
UART>
READ: 0x5D
UART>
READ: 0x04
UART>
READ: 0x5C
UART>
READ: 0x04
UART>
READ: 0x5C
UART>
READ: 0x04
UART>
READ: 0x5D
UART>
READ: 0x04
UART>
READ: 0x5C
UART>
READ: 0x04
UART>
READ: 0x5C
UART>
READ: 0x04
UART>
READ: 0x5C
UART>
READ: 0x04
UART>
READ: 0x5C
UART>
READ: 0x04
UART>
READ: 0x5A
UART>
READ: 0x04
UART>
READ: 0x59
UART>
READ: 0x04
UART>
READ: 0x58
UART>
READ: 0x04
UART>
READ: 0x59
UART>
READ: 0x04
UART>
READ: 0x5A
UART>
READ: 0x04
UART>
READ: 0x5A
UART>
READ: 0x04
UART>
READ: 0x5B
UART>
READ: 0x04
UART>
READ: 0x5B
UART>
READ: 0x04
UART>
READ: 0x5C
UART>
READ: 0x04
UART>
READ: 0x5D
UART>
READ: 0x04
UART>
READ: 0x5D
UART>
READ: 0x04
UART>
READ: 0x5D
UART>
READ: 0x04
UART>
READ: 0x5E
UART>
READ: 0x04
UART>
READ: 0x5E
UART>
READ: 0x04
UART>
READ: 0x5E
UART>
READ: 0x04
UART>
READ: 0x5D
UART>
READ: 0x04
UART>
READ: 0x5E
UART>
READ: 0x04
UART>
READ: 0x5E
UART>
READ: 0x04
UART>
READ: 0x5D
UART>
READ: 0x04
UART>
READ: 0x5E
UART>
READ: 0x04
UART>
READ: 0x5E
UART>
READ: 0x04
UART>
READ: 0x5E
UART>
READ: 0x04
UART>
READ: 0x5F
UART>
READ: 0x04
UART>
READ: 0x5F
UART>
READ: 0x04
UART>
READ: 0x5F
UART>
READ: 0x04
UART>
READ: 0x5F
UART>
READ: 0x04
UART>
READ: 0x5F
UART>
READ: 0x04
UART>
READ: 0x5F
UART>
READ: 0x04
UART>
READ: 0x60
UART>
READ: 0x04
UART>
READ: 0x60
UART>
READ: 0x04
UART>
READ: 0x60
UART>
READ: 0x04
UART>
READ: 0x60
UART>
READ: 0x04
UART>
READ: 0x60
UART>
READ: 0x04
UART>
READ: 0x5F
UART>
READ: 0x04
UART>
READ: 0x5F
UART>
READ: 0x04
UART>
READ: 0x61
UART>
READ: 0x04
UART>
READ: 0x60
UART>
READ: 0x04
UART>
READ: 0x60
UART>
READ: 0x04
UART>
READ: 0x60
UART>
READ: 0x04
UART>
READ: 0x60
UART>
READ: 0x04
UART>
READ: 0x60
UART>
READ: 0x04
UART>
READ: 0x60
UART>
READ: 0x04
UART>
READ: 0x60
UART>
READ: 0x04
UART>
READ: 0x60
UART>
READ: 0x04
UART>
READ: 0x60
UART>
READ: 0x04
UART>
READ: 0x60
UART>
READ: 0x04
UART>
READ: 0x60
UART>
READ: 0x04
UART>
READ: 0x5F
UART>
READ: 0x04
UART>
READ: 0x60
UART>
READ: 0x04
UART>
READ: 0x61
UART>
READ: 0x04
UART>
READ: 0x61
UART>
READ: 0x04
UART>
READ: 0x61
UART>
READ: 0x04
UART>
READ: 0x60
UART>
READ: 0x04
UART>
READ: 0x60
UART>
READ: 0x04
UART>
READ: 0x60
UART>
READ: 0x04
UART>
READ: 0x60
UART>
READ: 0x04
UART>
READ: 0x60
UART>
READ: 0x04
UART>
READ: 0x60
UART>
READ: 0x04
UART>
READ: 0x60
UART>
READ: 0x04
UART>
READ: 0x60
UART>
READ: 0x04
UART>
READ: 0x5F
UART>
READ: 0x04
UART>
READ: 0x60
UART>
READ: 0x04
UART>
READ: 0x60
UART>
READ: 0x04
UART>
READ: 0x60
UART>
READ: 0x04
UART>
READ: 0x61
UART>
READ: 0x04
UART>
READ: 0x60
UART>
READ: 0x04
UART>
READ: 0x5F
UART>
READ: 0x04
UART>
READ: 0x60
UART>
READ: 0x04
UART>
READ: 0x60
UART>
READ: 0x04
UART>
READ: 0x61
UART>
READ: 0x04
UART>
READ: 0x61
UART>
READ: 0x04
UART>
READ: 0x60
UART>
READ: 0x04
UART>
READ: 0x60
UART>
READ: 0x04
UART>
READ: 0x60
UART>
READ: 0x04
UART>
READ: 0x60
UART>
READ: 0x04
UART>
READ: 0x60
UART>
READ: 0x04
UART>
READ: 0x60
UART>
READ: 0x04
UART>
READ: 0x5F
UART>
READ: 0x04
UART>
READ: 0x5F
UART>
READ: 0x04
UART>
READ: 0x60
UART>
READ: 0x04
UART>
READ: 0x61
UART>
READ: 0x04
UART>
READ: 0x60
UART>
READ: 0x04
UART>
READ: 0x61
UART>
READ: 0x04
UART>
READ: 0x60
UART>
READ: 0x04
UART>
READ: 0x60
UART>
READ: 0x04
UART>
READ: 0x61
UART>
READ: 0x04
UART>
READ: 0x61
UART>
READ: 0x04
UART>
READ: 0x60
UART>
READ: 0x04
UART>
READ: 0x60
UART>
READ: 0x04
UART>
READ: 0x60
UART>
READ: 0x04
UART>
READ: 0x61
UART>
READ: 0x04
UART>
READ: 0x60
UART>
READ: 0x04
UART>
READ: 0x60
UART>
READ: 0x04
UART>
READ: 0x60
UART>
READ: 0x04
UART>
READ: 0x60
UART>
READ: 0x04
UART>
READ: 0x61
UART>
READ: 0x04
UART>
READ: 0x61
UART>
READ: 0x04
UART>
READ: 0x61
UART>
READ: 0x04
UART>
READ: 0x60
UART>
READ: 0x04
UART>
READ: 0x60
UART>
READ: 0x04
UART>
READ: 0x60
UART>
READ: 0x04
UART>
READ: 0x60
UART>
READ: 0x04
UART>
READ: 0x61
UART>
READ: 0x04
UART>
READ: 0x60
UART>
READ: 0x04
UART>
READ: 0x60
UART>
READ: 0x04
UART>
READ: 0x60
UART>
READ: 0x04
UART>
READ: 0x61
UART>
READ: 0x04
UART>
READ: 0x60
UART>
READ: 0x04
UART>
READ: 0x60
UART>
READ: 0x04
UART>
READ: 0x60
UART>
READ: 0x04
UART>
READ: 0x60
UART>
READ: 0x04
UART>
READ: 0x61
UART>
READ: 0x04
UART>
READ: 0x61
UART>
READ: 0x04
UART>
READ: 0x61
UART>
READ: 0x04
UART>
READ: 0x60
UART>
READ: 0x04
UART>
READ: 0x60
UART>
READ: 0x04
UART>
READ: 0x60
UART>
READ: 0x04
UART>
READ: 0x60
UART>
READ: 0x04
UART>
READ: 0x60
UART>
READ: 0x04
UART>
READ: 0x61
UART>
READ: 0x04
UART>
READ: 0x61
UART>
READ: 0x04
UART>
READ: 0x61
UART>
READ: 0x04
UART>
READ: 0x61
UART>
READ: 0x04
UART>
READ: 0x61
UART>
READ: 0x04
UART>
READ: 0x60
UART>
READ: 0x04
UART>
READ: 0x60
UART>
READ: 0x04
UART>
READ: 0x60
UART>
READ: 0x04
UART>
READ: 0x60
UART>
READ: 0x04
UART>
READ: 0x60
UART>
READ: 0x04
UART>
READ: 0x60
UART>
READ: 0x04
UART>
READ: 0x60
UART>
READ: 0x04
UART>
READ: 0x61
UART>
READ: 0x04
UART>
READ: 0x60
UART>
READ: 0x04
UART>
READ: 0x61
UART>
READ: 0x04
UART>
READ: 0x61
UART>
READ: 0x04
UART>
READ: 0x61
UART>
READ: 0x04
UART>
READ: 0x60
UART>
READ: 0x04
UART>
READ: 0x60
UART>
READ: 0x04
UART>
READ: 0x61
UART>
READ: 0x04
UART>
READ: 0x60
UART>
READ: 0x04
UART>
READ: 0x60
UART>
READ: 0x04
UART>
READ: 0x61
UART>
READ: 0x04
UART>
READ: 0x61
UART>
READ: 0x04
UART>
READ: 0x60
UART>
READ: 0x04
UART>
READ: 0x60
UART>
READ: 0x04
UART>
READ: 0x60
UART>
READ: 0x04
UART>
READ: 0x60
UART>
READ: 0x04
UART>
READ: 0x61
UART>
READ: 0x04
UART>
READ: 0x61
UART>
READ: 0x04
UART>
READ: 0x60
UART>
READ: 0x04
UART>