READ: 0x2D
UART>
READ: 0x01
UART>
READ: 0x2C
UART>
READ: 0x01
UART>
READ: 0x2D
UART>
READ: 0x01
UART>
READ: 0x30
UART>
READ: 0x01
UART>
READ: 0x33
UART>
READ: 0x01
UART>
READ: 0x36
UART>
READ: 0x01
UART>
READ: 0x3A
UART>
READ: 0x01
UART>
READ: 0x3D
UART>
READ: 0x01
UART>
READ: 0x41
UART>
READ: 0x01
UART>
READ: 0x44
UART>
READ: 0x01
UART>
READ: 0x47
UART>
READ: 0x01
UART>
READ: 0x4A
UART>
READ: 0x01
UART>
READ: 0x4E
UART>
READ: 0x01
UART>
READ: 0x51
UART>
READ: 0x01
UART>
READ: 0x55
UART>
READ: 0x01
UART>
READ: 0x58
UART>
READ: 0x01
UART>
READ: 0x5B
UART>
READ: 0x01
UART>
READ: 0x5F
UART>
READ: 0x01
UART>
READ: 0x62
UART>
READ: 0x01
UART>
READ: 0x65
UART>
READ: 0x01
UART>
READ: 0x69
UART>
READ: 0x01
UART>
READ: 0x6C
UART>
READ: 0x01
UART>
READ: 0x6F
UART>
READ: 0x01
UART>
READ: 0x73
UART>
READ: 0x01
UART>
READ: 0x76
UART>
READ: 0x01
UART>
READ: 0x79
UART>
READ: 0x01
UART>
READ: 0x7D
UART>
READ: 0x01
UART>
READ: 0x80
UART>
READ: 0x01
UART>
READ: 0x84
UART>
READ: 0x01
UART>
READ: 0x87
UART>
READ: 0x01
UART>
READ: 0x8A
UART>
READ: 0x01
UART>
READ: 0x8D
UART>
READ: 0x01
UART>
READ: 0x90
UART>
READ: 0x01
UART>
READ: 0x94
UART>
READ: 0x01
UART>
READ: 0x98
UART>
READ: 0x01
UART>
READ: 0x9A
UART>
READ: 0x01
UART>
READ: 0x9D
UART>
READ: 0x01
UART>
READ: 0xA1
UART>
READ: 0x01
UART>
READ: 0xA4
UART>
READ: 0x01
UART>
READ: 0xA8
UART>
READ: 0x01
UART>
READ: 0xAB
UART>
READ: 0x01
UART>
READ: 0xAE
UART>
READ: 0x01
UART>
READ: 0xB2
UART>
READ: 0x01
UART>
READ: 0xB5
UART>
READ: 0x01
UART>
READ: 0xB8
UART>
READ: 0x01
UART>
READ: 0xBB
UART>
READ: 0x01
UART>
READ: 0xBF
UART>
READ: 0x01
UART>
READ: 0xC2
UART>
READ: 0x01
UART>
READ: 0xC6
UART>
READ: 0x01
UART>
READ: 0xC9
UART>
READ: 0x01
UART>
READ: 0xCD
UART>
READ: 0x01
UART>
READ: 0xD0
UART>
READ: 0x01
UART>
READ: 0xD3
UART>
READ: 0x01
UART>
READ: 0xD6
UART>
READ: 0x01
UART>
READ: 0xDA
UART>
READ: 0x01
UART>
READ: 0xDD
UART>
READ: 0x01
UART>
READ: 0xE0
UART>
READ: 0x01
UART>
READ: 0xE3
UART>
READ: 0x01
UART>
READ: 0xE7
UART>
READ: 0x01
UART>
READ: 0xEA
UART>
READ: 0x01
UART>
READ: 0xED
UART>
READ: 0x01
UART>
READ: 0xF0
UART>
READ: 0x01
UART>
READ: 0xF4
UART>
READ: 0x01
UART>
READ: 0xF7
UART>
READ: 0x01
UART>
READ: 0xFB
UART>
READ: 0x01
UART>
READ: 0xFE
UART>
READ: 0x01
UART>
READ: 0x01
UART>
READ: 0x02
UART>
READ: 0x05
UART>
READ: 0x02
UART>
READ: 0x08
UART>
READ: 0x02
UART>
READ: 0x0B
UART>
READ: 0x02
UART>
READ: 0x0E
UART>
READ: 0x02
UART>
READ: 0x11
UART>
READ: 0x02
UART>
READ: 0x14
UART>
READ: 0x02
UART>
READ: 0x18
UART>
READ: 0x02
UART>
READ: 0x1B
UART>
READ: 0x02
UART>
READ: 0x1F
UART>
READ: 0x02
UART>
READ: 0x22
UART>
READ: 0x02
UART>
READ: 0x25
UART>
READ: 0x02
UART>
READ: 0x28
UART>
READ: 0x02
UART>
READ: 0x2C
UART>
READ: 0x02
UART>
READ: 0x2F
UART>
READ: 0x02
UART>
READ: 0x32
UART>
READ: 0x02
UART>
READ: 0x35
UART>
READ: 0x02
UART>
READ: 0x39
UART>
READ: 0x02
UART>
READ: 0x3C
UART>
READ: 0x02
UART>
READ: 0x3F
UART>
READ: 0x02
UART>
READ: 0x43
UART>
READ: 0x02
UART>
READ: 0x46
UART>
READ: 0x02
UART>
READ: 0x49
UART>
READ: 0x02
UART>
READ: 0x4D
UART>
READ: 0x02
UART>
READ: 0x50
UART>
READ: 0x02
UART>
READ: 0x53
UART>
READ: 0x02
UART>
READ: 0x56
UART>
READ: 0x02
UART>
READ: 0x59
UART>
READ: 0x02
UART>
READ: 0x5C
UART>
READ: 0x02
UART>
READ: 0x60
UART>
READ: 0x02
UART>
READ: 0x63
UART>
READ: 0x02
UART>
READ: 0x66
UART>
READ: 0x02
UART>
READ: 0x69
UART>
READ: 0x02
UART>
READ: 0x6D
UART>
READ: 0x02
UART>
READ: 0x6F
UART>
READ: 0x02
UART>
READ: 0x73
UART>
READ: 0x02
UART>
READ: 0x76
UART>
READ: 0x02
UART>
READ: 0x79
UART>
READ: 0x02
UART>
READ: 0x7C
UART>
READ: 0x02
UART>
READ: 0x80
UART>
READ: 0x02
UART>
READ: 0x83
UART>
READ: 0x02
UART>
READ: 0x86
UART>
READ: 0x02
UART>
READ: 0x8A
UART>
READ: 0x02
UART>
READ: 0x8C
UART>
READ: 0x02
UART>
READ: 0x8F
UART>
READ: 0x02
UART>
READ: 0x93
UART>
READ: 0x02
UART>
READ: 0x96
UART>
READ: 0x02
UART>
READ: 0x98
UART>
READ: 0x02
UART>
READ: 0x9B
UART>
READ: 0x02
UART>
READ: 0x9F
UART>
READ: 0x02
UART>
READ: 0xA2
UART>
READ: 0x02
UART>
READ: 0xA5
UART>
READ: 0x02
UART>
READ: 0xA7
UART>
READ: 0x02
UART>
READ: 0xAB
UART>
READ: 0x02
UART>
READ: 0xAE
UART>
READ: 0x02
UART>
READ: 0xB1
UART>
READ: 0x02
UART>
READ: 0xB4
UART>
READ: 0x02
UART>
READ: 0xB7
UART>
READ: 0x02
UART>
READ: 0xBB
UART>
READ: 0x02
UART>
READ: 0xBD
UART>
READ: 0x02
UART>
READ: 0xC0
UART>
READ: 0x02
UART>
READ: 0xC3
UART>
READ: 0x02
UART>
READ: 0xC7
UART>
READ: 0x02
UART>
READ: 0xCA
UART>
READ: 0x02
UART>
READ: 0xCD
UART>
READ: 0x02
UART>
READ: 0xD0
UART>
READ: 0x02
UART>
READ: 0xD3
UART>
READ: 0x02
UART>
READ: 0xD6
UART>
READ: 0x02
UART>
READ: 0xD9
UART>
READ: 0x02
UART>
READ: 0xDC
UART>
READ: 0x02
UART>
READ: 0xDE
UART>
READ: 0x02
UART>
READ: 0xE2
UART>
READ: 0x02
UART>
READ: 0xE6
UART>
READ: 0x02
UART>
READ: 0xE8
UART>
READ: 0x02
UART>
READ: 0xEB
UART>
READ: 0x02
UART>
READ: 0xEC
UART>
READ: 0x02
UART>
READ: 0xF0
UART>
READ: 0x02
UART>
READ: 0xF1
UART>
READ: 0x02
UART>
READ: 0xF6
UART>
READ: 0x02
UART>
READ: 0xF8
UART>
READ: 0x02
UART>
READ: 0xFC
UART>
READ: 0x02
UART>
READ: 0xFF
UART>
READ: 0x02
UART>
READ: 0x03
UART>
READ: 0x03
UART>
READ: 0x04
UART>
READ: 0x03
UART>
READ: 0x09
UART>
READ: 0x03
UART>
READ: 0x0A
UART>
READ: 0x03
UART>
READ: 0x0F
UART>
READ: 0x03
UART>
READ: 0x12
UART>
READ: 0x03
UART>
READ: 0x15
UART>
READ: 0x03
UART>
READ: 0x18
UART>
READ: 0x03
UART>
READ: 0x1B
UART>
READ: 0x03
UART>
READ: 0x1E
UART>
READ: 0x03
UART>
READ: 0x20
UART>
READ: 0x03
UART>
READ: 0x23
UART>
READ: 0x03
UART>
READ: 0x26
UART>
READ: 0x03
UART>
READ: 0x29
UART>
READ: 0x03
UART>
READ: 0x2C
UART>
READ: 0x03
UART>
READ: 0x2E
UART>
READ: 0x03
UART>
READ: 0x31
UART>
READ: 0x03
UART>
READ: 0x35
UART>
READ: 0x03
UART>
READ: 0x37
UART>
READ: 0x03
UART>
READ: 0x3A
UART>
READ: 0x03
UART>
READ: 0x3D
UART>
READ: 0x03
UART>
READ: 0x40
UART>
READ: 0x03
UART>
READ: 0x42
UART>
READ: 0x03
UART>
READ: 0x45
UART>
READ: 0x03
UART>
READ: 0x48
UART>
READ: 0x03
UART>
READ: 0x4B
UART>
READ: 0x03
UART>
READ: 0x4E
UART>
READ: 0x03
UART>
READ: 0x50
UART>
READ: 0x03
UART>
READ: 0x53
UART>
READ: 0x03
UART>
READ: 0x56
UART>
READ: 0x03
UART>
READ: 0x59
UART>
READ: 0x03
UART>
READ: 0x5B
UART>
READ: 0x03
UART>
READ: 0x5E
UART>
READ: 0x03
UART>
READ: 0x61
UART>
READ: 0x03
UART>
READ: 0x63
UART>
READ: 0x03
UART>
READ: 0x66
UART>
READ: 0x03
UART>
READ: 0x69
UART>
READ: 0x03
UART>
READ: 0x6B
UART>
READ: 0x03
UART>
READ: 0x6E
UART>
READ: 0x03
UART>
READ: 0x70
UART>
READ: 0x03
UART>
READ: 0x74
UART>
READ: 0x03
UART>
READ: 0x77
UART>
READ: 0x03
UART>
READ: 0x79
UART>
READ: 0x03
UART>
READ: 0x7C
UART>
READ: 0x03
UART>
READ: 0x7E
UART>
READ: 0x03
UART>
READ: 0x81
UART>
READ: 0x03
UART>
READ: 0x84
UART>
READ: 0x03
UART>
READ: 0x86
UART>
READ: 0x03
UART>
READ: 0x89
UART>
READ: 0x03
UART>
READ: 0x8C
UART>
READ: 0x03
UART>
READ: 0x8E
UART>
READ: 0x03
UART>
READ: 0x90
UART>
READ: 0x03
UART>
READ: 0x93
UART>
READ: 0x03
UART>
READ: 0x96
UART>
READ: 0x03
UART>
READ: 0x98
UART>
READ: 0x03
UART>
READ: 0x9B
UART>
READ: 0x03
UART>
READ: 0x9D
UART>
READ: 0x03
UART>
READ: 0xA0
UART>
READ: 0x03
UART>
READ: 0xA2
UART>
READ: 0x03
UART>
READ: 0xA5
UART>
READ: 0x03
UART>
READ: 0xA8
UART>
READ: 0x03
UART>
READ: 0xA9
UART>
READ: 0x03
UART>
READ: 0xAD
UART>
READ: 0x03
UART>
READ: 0xAE
UART>
READ: 0x03
UART>
READ: 0xB1
UART>
READ: 0x03
UART>
READ: 0xB4
UART>
READ: 0x03
UART>
READ: 0xB6
UART>
READ: 0x03
UART>
READ: 0xB9
UART>
READ: 0x03
UART>
READ: 0xBB
UART>
READ: 0x03
UART>
READ: 0xBE
UART>
READ: 0x03
UART>
READ: 0xC0
UART>
READ: 0x03
UART>
READ: 0xC2
UART>
READ: 0x03
UART>
READ: 0xC5
UART>
READ: 0x03
UART>
READ: 0xC7
UART>
READ: 0x03
UART>
READ: 0xCB
UART>
READ: 0x03
UART>
READ: 0xCC
UART>
READ: 0x03
UART>
READ: 0xCF
UART>
READ: 0x03
UART>
READ: 0xD1
UART>
READ: 0x03
UART>
READ: 0xD4
UART>
READ: 0x03
UART>
READ: 0xD6
UART>
READ: 0x03
UART>
READ: 0xD9
UART>
READ: 0x03
UART>
READ: 0xDB
UART>
READ: 0x03
UART>
READ: 0xDD
UART>
READ: 0x03
UART>
READ: 0xDF
UART>
READ: 0x03
UART>
READ: 0xE2
UART>
READ: 0x03
UART>
READ: 0xE4
UART>
READ: 0x03
UART>
READ: 0xE7
UART>
READ: 0x03
UART>
READ: 0xE9
UART>
READ: 0x03
UART>
READ: 0xEC
UART>
READ: 0x03
UART>
READ: 0xEE
UART>
READ: 0x03
UART>
READ: 0xEF
UART>
READ: 0x03
UART>
READ: 0xF2
UART>
READ: 0x03
UART>
READ: 0xF4
UART>
READ: 0x03
UART>
READ: 0xF7
UART>
READ: 0x03
UART>
READ: 0xF9
UART>
READ: 0x03
UART>
READ: 0xFC
UART>
READ: 0x03
UART>
READ: 0xFE
UART>
READ: 0x03
UART>
READ: 0x00
UART>
READ: 0x04
UART>
READ: 0x02
UART>
READ: 0x04
UART>
READ: 0x05
UART>
READ: 0x04
UART>
READ: 0x07
UART>
READ: 0x04
UART>
READ: 0x09
UART>
READ: 0x04
UART>
READ: 0x0C
UART>
READ: 0x04
UART>
READ: 0x0E
UART>
READ: 0x04
UART>
READ: 0x10
UART>
READ: 0x04
UART>
READ: 0x12
UART>
READ: 0x04
UART>
READ: 0x15
UART>
READ: 0x04
UART>
READ: 0x17
UART>
READ: 0x04
UART>
READ: 0x19
UART>
READ: 0x04
UART>
READ: 0x1B
UART>
READ: 0x04
UART>
READ: 0x1E
UART>
READ: 0x04
UART>
READ: 0x20
UART>
READ: 0x04
UART>
READ: 0x22
UART>
READ: 0x04
UART>
READ: 0x24
UART>
READ: 0x04
UART>
READ: 0x27
UART>
READ: 0x04
UART>
READ: 0x28
UART>
READ: 0x04
UART>
READ: 0x2B
UART>
READ: 0x04
UART>
READ: 0x2D
UART>
READ: 0x04
UART>
READ: 0x2F
UART>
READ: 0x04
UART>
READ: 0x32
UART>
READ: 0x04
UART>
READ: 0x33
UART>
READ: 0x04
UART>
READ: 0x36
UART>
READ: 0x04
UART>
READ: 0x38
UART>
READ: 0x04
UART>
READ: 0x3A
UART>
READ: 0x04
UART>
READ: 0x3C
UART>
READ: 0x04
UART>
READ: 0x3F
UART>
READ: 0x04
UART>
READ: 0x40
UART>
READ: 0x04
UART>
READ: 0x42
UART>
READ: 0x04
UART>
READ: 0x45
UART>
READ: 0x04
UART>
READ: 0x47
UART>
READ: 0x04
UART>
READ: 0x49
UART>
READ: 0x04
UART>
READ: 0x4B
UART>
READ: 0x04
UART>
READ: 0x4D
UART>
READ: 0x04
UART>
READ: 0x4F
UART>
READ: 0x04
UART>
READ: 0x52
UART>
READ: 0x04
UART>
READ: 0x53
UART>
READ: 0x04
UART>
READ: 0x55
UART>
READ: 0x04
UART>
READ: 0x57
UART>
READ: 0x04
UART>
READ: 0x59
UART>
READ: 0x04
UART>
READ: 0x5B
UART>
READ: 0x04
UART>
READ: 0x5D
UART>
READ: 0x04
UART>
READ: 0x5E
UART>
READ: 0x04
UART>
READ: 0x5F
UART>
READ: 0x04
UART>
READ: 0x61
UART>
READ: 0x04
UART>
READ: 0x62
UART>
READ: 0x04
UART>
READ: 0x63
UART>
READ: 0x04
UART>
READ: 0x64
UART>
READ: 0x04
UART>
READ: 0x64
UART>
READ: 0x04
UART>
READ: 0x65
UART>
READ: 0x04
UART>
READ: 0x65
UART>
READ: 0x04
UART>
READ: 0x66
UART>
READ: 0x04
UART>
READ: 0x66
UART>
READ: 0x04
UART>
READ: 0x66
UART>
READ: 0x04
UART>
READ: 0x66
UART>
READ: 0x04
UART>
READ: 0x66
UART>
READ: 0x04
UART>
READ: 0x66
UART>
READ: 0x04
UART>
READ: 0x66
UART>
READ: 0x04
UART>
READ: 0x66
UART>
READ: 0x04
UART>
READ: 0x66
UART>
READ: 0x04
UART>
READ: 0x66
UART>
READ: 0x04
UART>
READ: 0x66
UART>
READ: 0x04
UART>
READ: 0x66
UART>
READ: 0x04
UART>
READ: 0x66
UART>
READ: 0x04
UART>
READ: 0x67
UART>
READ: 0x04
UART>
READ: 0x66
UART>
READ: 0x04
UART>
READ: 0x66
UART>
READ: 0x04
UART>
READ: 0x66
UART>
READ: 0x04
UART>
READ: 0x66
UART>
READ: 0x04
UART>
READ: 0x66
UART>
READ: 0x04
UART>
READ: 0x65
UART>
READ: 0x04
UART>
READ: 0x65
UART>
READ: 0x04
UART>
READ: 0x65
UART>
READ: 0x04
UART>
READ: 0x64
UART>
READ: 0x04
UART>
READ: 0x64
UART>
READ: 0x04
UART>
READ: 0x64
UART>
READ: 0x04
UART>
READ: 0x64
UART>
READ: 0x04
UART>
READ: 0x64
UART>
READ: 0x04
UART>
READ: 0x64
UART>
READ: 0x04
UART>
READ: 0x64
UART>
READ: 0x04
UART>
READ: 0x63
UART>
READ: 0x04
UART>
READ: 0x63
UART>
READ: 0x04
UART>
READ: 0x63
UART>
READ: 0x04
UART>
READ: 0x63
UART>
READ: 0x04
UART>
READ: 0x63
UART>
READ: 0x04
UART>
READ: 0x63
UART>
READ: 0x04
UART>
READ: 0x63
UART>
READ: 0x04
UART>
READ: 0x63
UART>
READ: 0x04
UART>
READ: 0x62
UART>
READ: 0x04
UART>
READ: 0x62
UART>
READ: 0x04
UART>
READ: 0x62
UART>
READ: 0x04
UART>
READ: 0x62
UART>
READ: 0x04
UART>
READ: 0x61
UART>
READ: 0x04
UART>
READ: 0x61
UART>
READ: 0x04
UART>
READ: 0x61
UART>
READ: 0x04
UART>
READ: 0x61
UART>
READ: 0x04
UART>
READ: 0x61
UART>
READ: 0x04
UART>
READ: 0x62
UART>
READ: 0x04
UART>
READ: 0x61
UART>
READ: 0x04
UART>
READ: 0x61
UART>
READ: 0x04
UART>
READ: 0x61
UART>
READ: 0x04
UART>
READ: 0x60
UART>
READ: 0x04
UART>
READ: 0x60
UART>
READ: 0x04
UART>
READ: 0x61
UART>
READ: 0x04
UART>
READ: 0x61
UART>
READ: 0x04
UART>
READ: 0x61
UART>
READ: 0x04
UART>
READ: 0x60
UART>
READ: 0x04
UART>
READ: 0x60
UART>
READ: 0x04
UART>
READ: 0x60
UART>
READ: 0x04
UART>
READ: 0x60
UART>
READ: 0x04
UART>
READ: 0x60
UART>
READ: 0x04
UART>
READ: 0x60
UART>
READ: 0x04
UART>
READ: 0x60
UART>
READ: 0x04
UART>
READ: 0x60
UART>
READ: 0x04
UART>
READ: 0x60
UART>
READ: 0x04
UART>
READ: 0x60
UART>
READ: 0x04
UART>
READ: 0x60
UART>
READ: 0x04
UART>
READ: 0x60
UART>
READ: 0x04
UART>
READ: 0x60
UART>
READ: 0x04
UART>
READ: 0x60
UART>
READ: 0x04
UART>
READ: 0x60
UART>
READ: 0x04
UART>
READ: 0x60
UART>
READ: 0x04
UART>
READ: 0x60
UART>
READ: 0x04
UART>
READ: 0x5F
UART>
READ: 0x04
UART>
READ: 0x60
UART>
READ: 0x04
UART>
READ: 0x5F
UART>
READ: 0x04
UART>
READ: 0x60
UART>
READ: 0x04
UART>
READ: 0x60
UART>
READ: 0x04
UART>
READ: 0x60
UART>
READ: 0x04
UART>
READ: 0x60
UART>
READ: 0x04
UART>
READ: 0x60
UART>
READ: 0x04
UART>
READ: 0x60
UART>
READ: 0x04
UART>
READ: 0x60
UART>
READ: 0x04
UART>
READ: 0x60
UART>
READ: 0x04
UART>
READ: 0x60
UART>
READ: 0x04
UART>
READ: 0x60
UART>
READ: 0x04
UART>
READ: 0x60
UART>
READ: 0x04
UART>
READ: 0x60
UART>
READ: 0x04
UART>
READ: 0x60
UART>
READ: 0x04
UART>
READ: 0x60
UART>
READ: 0x04
UART>
READ: 0x5F
UART>
READ: 0x04
UART>
READ: 0x60
UART>
READ: 0x04
UART>
READ: 0x60
UART>
READ: 0x04
UART>
READ: 0x60
UART>
READ: 0x04
UART>
READ: 0x60
UART>
READ: 0x04
UART>
READ: 0x60
UART>
READ: 0x04
UART>
READ: 0x60
UART>
READ: 0x04
UART>
READ: 0x5F
UART>
READ: 0x04
UART>
READ: 0x60
UART>
READ: 0x04
UART>
READ: 0x60
UART>
READ: 0x04
UART>
READ: 0x60
UART>
READ: 0x04
UART>
READ: 0x60
UART>
READ: 0x04
UART>
READ: 0x60
UART>
READ: 0x04
UART>
READ: 0x60
UART>
READ: 0x04
UART>
READ: 0x60
UART>
READ: 0x04
UART>
READ: 0x60
UART>
READ: 0x04
UART>
READ: 0x60
UART>
READ: 0x04
UART>
READ: 0x60
UART>
READ: 0x04
UART>
READ: 0x60
UART>
READ: 0x04
UART>
READ: 0x60
UART>
READ: 0x04
UART>
READ: 0x61
UART>
READ: 0x04
UART>
READ: 0x60
UART>
READ: 0x04
UART>
READ: 0x60
UART>
READ: 0x04
UART>
READ: 0x60
UART>
READ: 0x04
UART>
READ: 0x60
UART>
READ: 0x04
UART>
READ: 0x60
UART>
READ: 0x04
UART>
READ: 0x60
UART>
READ: 0x04
UART>
READ: 0x61
UART>
READ: 0x04
UART>
READ: 0x61
UART>
READ: 0x04
UART>
READ: 0x61
UART>
READ: 0x04
UART>
READ: 0x60
UART>
READ: 0x04
UART>
READ: 0x60
UART>
READ: 0x04
UART>
READ: 0x60
UART>
READ: 0x04
UART>
READ: 0x60
UART>
READ: 0x04
UART>
READ: 0x60
UART>
READ: 0x04
UART>
READ: 0x60
UART>
READ: 0x04
UART>
READ: 0x60
UART>
READ: 0x04
UART>
READ: 0x60
UART>
READ: 0x04
UART>
READ: 0x60
UART>
READ: 0x04
UART>
READ: 0x61
UART>
READ: 0x04
UART>
READ: 0x61
UART>
READ: 0x04
UART>
READ: 0x61
UART>
READ: 0x04
UART>
READ: 0x60
UART>
READ: 0x04
UART>
READ: 0x60
UART>
READ: 0x04
UART>
READ: 0x60
UART>
READ: 0x04
UART>
READ: 0x60
UART>
READ: 0x04
UART>
READ: 0x60
UART>
READ: 0x04
UART>
READ: 0x5F
UART>
READ: 0x04
UART>
READ: 0x60
UART>
READ: 0x04
UART>
READ: 0x60
UART>
READ: 0x04
UART>
READ: 0x60
UART>
READ: 0x04
UART>
READ: 0x60
UART>
READ: 0x04
UART>
READ: 0x60
UART>
READ: 0x04
UART>
READ: 0x60
UART>
READ: 0x04
UART>
READ: 0x60
UART>
READ: 0x04
UART>
READ: 0x60
UART>
READ: 0x04
UART>
READ: 0x60
UART>
READ: 0x04
UART>
READ: 0x60
UART>
READ: 0x04
UART>
READ: 0x60
UART>
READ: 0x04
UART>
READ: 0x60
UART>
READ: 0x04
UART>
READ: 0x60
UART>
READ: 0x04
UART>
READ: 0x60
UART>
READ: 0x04
UART>
READ: 0x60
UART>
READ: 0x04
UART>
READ: 0x60
UART>
READ: 0x04
UART>
READ: 0x60
UART>
READ: 0x04
UART>
READ: 0x60
UART>
READ: 0x04
UART>
READ: 0x60
UART>
READ: 0x04
UART>
READ: 0x5F
UART>
READ: 0x04
UART>
READ: 0x60
UART>
READ: 0x04
UART>
READ: 0x60
UART>
READ: 0x04
UART>
READ: 0x60
UART>
READ: 0x04
UART>
READ: 0x60
UART>
READ: 0x04
UART>
READ: 0x60
UART>
READ: 0x04
UART>
READ: 0x60
UART>
READ: 0x04
UART>
READ: 0x60
UART>
READ: 0x04
UART>
READ: 0x60
UART>
READ: 0x04
UART>
READ: 0x60
UART>
READ: 0x04
UART>
READ: 0x60
UART>
READ: 0x04
UART>
READ: 0x60
UART>
READ: 0x04
UART>
READ: 0x60
UART>
READ: 0x04
UART>
READ: 0x60
UART>
READ: 0x04
UART>
READ: 0x60
UART>
READ: 0x04
UART>
READ: 0x60
UART>
READ: 0x04
UART>
READ: 0x60
UART>
READ: 0x04
UART>
READ: 0x60
UART>
READ: 0x04
UART>
READ: 0x60
UART>
READ: 0x04
UART>
READ: 0x61
UART>
READ: 0x04
UART>
READ: 0x60
UART>
READ: 0x04
UART>
READ: 0x60
UART>
READ: 0x04
UART>
READ: 0x60
UART>
READ: 0x04
UART>
READ: 0x60
UART>
READ: 0x04
UART>
READ: 0x60
UART>
READ: 0x04
UART>
READ: 0x60
UART>
READ: 0x04
UART>
READ: 0x60
UART>
READ: 0x04
UART>
READ: 0x60
UART>
READ: 0x04
UART>
READ: 0x60
UART>
READ: 0x04
UART>
READ: 0x60
UART>
READ: 0x04
UART>
READ: 0x5F
UART>
READ: 0x04
UART>
READ: 0x5F
UART>
READ: 0x04
UART>
READ: 0x5F
UART>
READ: 0x04
UART>
READ: 0x60
UART>
READ: 0x04
UART>
READ: 0x60
UART>
READ: 0x04
UART>
READ: 0x5F
UART>
READ: 0x04
UART>
READ: 0x60
UART>
READ: 0x04
UART>
READ: 0x60
UART>
READ: 0x04
UART>
READ: 0x60
UART>
READ: 0x04
UART>
READ: 0x60
UART>
READ: 0x04
UART>
READ: 0x60
UART>
READ: 0x04
UART>
READ: 0x61
UART>
READ: 0x04
UART>
READ: 0x60
UART>
READ: 0x04
UART>
READ: 0x61
UART>
READ: 0x04
UART>
READ: 0x60
UART>
READ: 0x04
UART>
READ: 0x60
UART>
READ: 0x04
UART>
READ: 0x60
UART>
READ: 0x04
UART>
READ: 0x60
UART>
READ: 0x04
UART>
READ: 0x60
UART>
READ: 0x04
UART>
READ: 0x60
UART>
READ: 0x04
UART>
READ: 0x60
UART>
READ: 0x04
UART>
READ: 0x60
UART>
READ: 0x04
UART>
READ: 0x60
UART>
READ: 0x04
UART>
READ: 0x60
UART>
READ: 0x04
UART>
READ: 0x60
UART>
READ: 0x04
UART>
READ: 0x60
UART>
READ: 0x04
UART>
READ: 0x60
UART>
READ: 0x04
UART>
READ: 0x60
UART>
READ: 0x04
UART>
READ: 0x60
UART>
READ: 0x04
UART>
READ: 0x60
UART>
READ: 0x04
UART>
READ: 0x60
UART>
READ: 0x04
UART>
READ: 0x60
UART>
READ: 0x04
UART>
READ: 0x60
UART>
READ: 0x04
UART>
READ: 0x60
UART>
READ: 0x04
UART>
READ: 0x60
UART>
READ: 0x04
UART>
READ: 0x60
UART>
READ: 0x04
UART>
READ: 0x60
UART>
READ: 0x04
UART>
READ: 0x60
UART>
READ: 0x04
UART>
READ: 0x60
UART>
READ: 0x04
UART>
READ: 0x60
UART>
READ: 0x04
UART>
READ: 0x61
UART>
READ: 0x04
UART>
READ: 0x60
UART>
READ: 0x04
UART>
READ: 0x60
UART>
READ: 0x04
UART>
READ: 0x60
UART>
READ: 0x04
UART>
READ: 0x60
UART>
READ: 0x04
UART>
READ: 0x60
UART>
READ: 0x04
UART>
READ: 0x60
UART>
READ: 0x04
UART>
READ: 0x60
UART>
READ: 0x04
UART>
READ: 0x60
UART>
READ: 0x04
UART>
READ: 0x60
UART>
READ: 0x04
UART>
READ: 0x60
UART>
READ: 0x04
UART>
READ: 0x60
UART>
READ: 0x04
UART>
READ: 0x60
UART>
READ: 0x04
UART>
READ: 0x60
UART>
READ: 0x04
UART>
READ: 0x60
UART>
READ: 0x04
UART>
READ: 0x61
UART>
READ: 0x04
UART>
READ: 0x60
UART>
READ: 0x04
UART>
READ: 0x61
UART>
READ: 0x04
UART>
READ: 0x60
UART>
READ: 0x04
UART>
READ: 0x60
UART>
READ: 0x04
UART>
READ: 0x60
UART>
READ: 0x04
UART>
READ: 0x60
UART>
READ: 0x04
UART>
READ: 0x60
UART>
READ: 0x04
UART>
READ: 0x60
UART>
READ: 0x04
UART>
READ: 0x60
UART>
READ: 0x04
UART>
READ: 0x61
UART>
READ: 0x04
UART>
READ: 0x60
UART>
READ: 0x04
UART>
READ: 0x60
UART>
READ: 0x04
UART>
READ: 0x60
UART>
READ: 0x04
UART>
READ: 0x60
UART>
READ: 0x04
UART>
READ: 0x60
UART>
READ: 0x04
UART>
READ: 0x60
UART>
READ: 0x04
UART>
READ: 0x60
UART>
READ: 0x04
UART>
READ: 0x60
UART>
READ: 0x04
UART>
READ: 0x60
UART>
READ: 0x04
UART>
READ: 0x60
UART>
READ: 0x04
UART>
READ: 0x60
UART>
READ: 0x04
UART>
READ: 0x60
UART>
READ: 0x04
UART>
READ: 0x61
UART>
READ: 0x04
UART>
READ: 0x60
UART>
READ: 0x04
UART>
READ: 0x60
UART>
READ: 0x04
UART>
READ: 0x60
UART>
READ: 0x04
UART>
READ: 0x60
UART>
READ: 0x04
UART>
READ: 0x60
UART>
READ: 0x04
UART>
READ: 0x61
UART>
READ: 0x04
UART>
READ: 0x60
UART>
READ: 0x04
UART>
READ: 0x60
UART>
READ: 0x04
UART>
READ: 0x60
UART>
READ: 0x04
UART>
READ: 0x60
UART>
READ: 0x04
UART>
READ: 0x60
UART>
READ: 0x04
UART>
READ: 0x60
UART>
READ: 0x04
UART>
READ: 0x60
UART>
READ: 0x04
UART>
READ: 0x60
UART>
READ: 0x04
UART>
READ: 0x60
UART>
READ: 0x04
UART>
READ: 0x60
UART>
READ: 0x04
UART>
READ: 0x60
UART>
READ: 0x04
UART>
READ: 0x60
UART>
READ: 0x04
UART>
READ: 0x60
UART>
READ: 0x04
UART>
READ: 0x60
UART>
READ: 0x04
UART>
READ: 0x60
UART>
READ: 0x04
UART>
READ: 0x60
UART>
READ: 0x04
UART>
READ: 0x60
UART>
READ: 0x04
UART>
READ: 0x60
UART>
READ: 0x04
UART>
READ: 0x60
UART>
READ: 0x04
UART>
READ: 0x60
UART>
READ: 0x04
UART>
READ: 0x60
UART>
READ: 0x04
UART>
READ: 0x5F
UART>
READ: 0x04
UART>
READ: 0x60
UART>
READ: 0x04
UART>
READ: 0x60
UART>
READ: 0x04
UART>
READ: 0x60
UART>
READ: 0x04
UART>
READ: 0x60
UART>
READ: 0x04
UART>
READ: 0x60
UART>
READ: 0x04
UART>
READ: 0x60
UART>
READ: 0x04
UART>
READ: 0x60
UART>
READ: 0x04
UART>
READ: 0x60
UART>
READ: 0x04
UART>
READ: 0x60
UART>
READ: 0x04
UART>
READ: 0x60
UART>
READ: 0x04
UART>
READ: 0x60
UART>
READ: 0x04
UART>
READ: 0x61
UART>
READ: 0x04
UART>
READ: 0x61
UART>
READ: 0x04
UART>
READ: 0x60
UART>
READ: 0x04
UART>
READ: 0x61
UART>
READ: 0x04
UART>
READ: 0x60
UART>
READ: 0x04
UART>
READ: 0x60
UART>
READ: 0x04
UART>
READ: 0x61
UART>
READ: 0x04
UART>
READ: 0x61
UART>
READ: 0x04
UART>
READ: 0x61
UART>
READ: 0x04
UART>
READ: 0x61
UART>
READ: 0x04
UART>
READ: 0x60
UART>
READ: 0x04
UART>
READ: 0x60
UART>
READ: 0x04
UART>
READ: 0x60
UART>
READ: 0x04
UART>
READ: 0x61
UART>
READ: 0x04
UART>
READ: 0x60
UART>
READ: 0x04
UART>
READ: 0x60
UART>
READ: 0x04
UART>
READ: 0x60
UART>
READ: 0x04
UART>
READ: 0x60
UART>
READ: 0x04
UART>
READ: 0x60
UART>
READ: 0x04
UART>
READ: 0x60
UART>
READ: 0x04
UART>
READ: 0x60
UART>
READ: 0x04
UART>
READ: 0x60
UART>
READ: 0x04
UART>
READ: 0x61
UART>
READ: 0x04
UART>
READ: 0x60
UART>
READ: 0x04
UART>
READ: 0x61
UART>
READ: 0x04
UART>
READ: 0x61
UART>
READ: 0x04
UART>
READ: 0x61
UART>
READ: 0x04
UART>
READ: 0x61
UART>
READ: 0x04
UART>
READ: 0x60
UART>
READ: 0x04
UART>
READ: 0x60
UART>
READ: 0x04
UART>
READ: 0x61
UART>
READ: 0x04
UART>
READ: 0x61
UART>
READ: 0x04
UART>
READ: 0x61
UART>
READ: 0x04
UART>
READ: 0x61
UART>
READ: 0x04
UART>
READ: 0x61
UART>
READ: 0x04
UART>
READ: 0x61
UART>
READ: 0x04
UART>
READ: 0x60
UART>
READ: 0x04
UART>
READ: 0x60
UART>
READ: 0x04
UART>
READ: 0x60
UART>
READ: 0x04
UART>
READ: 0x60
UART>
READ: 0x04
UART>
READ: 0x60
UART>
READ: 0x04
UART>
READ: 0x60
UART>
READ: 0x04
UART>
READ: 0x61
UART>
READ: 0x04
UART>
READ: 0x61
UART>
READ: 0x04
UART>
READ: 0x60
UART>
READ: 0x04
UART>
READ: 0x60
UART>
READ: 0x04
UART>
READ: 0x60
UART>
READ: 0x04
UART>
READ: 0x61
UART>
READ: 0x04
UART>
READ: 0x60
UART>
READ: 0x04
UART>
READ: 0x61
UART>
READ: 0x04
UART>
READ: 0x61
UART>
READ: 0x04
UART>
READ: 0x61
UART>
READ: 0x04
UART>
READ: 0x61
UART>
READ: 0x04
UART>
READ: 0x61
UART>
READ: 0x04
UART>
READ: 0x61
UART>
READ: 0x04
UART>
READ: 0x60
UART>
READ: 0x04
UART>